
T1D7C 000:068 SEGGER J-Link V4.76d Log File (0001ms, 0067ms total)
T1D7C 000:068 DLL Compiled: Sep 13 2013 16:35:06 (0001ms, 0067ms total)
T1D7C 000:068 Logging started @ 2014-08-18 08:41 (0001ms, 0067ms total)
T1D7C 000:069 JLINK_SetWarnOutHandler(...) (0000ms, 0067ms total)
T1D7C 000:069 JLINK_OpenEx(...)
Firmware: J-Link ARM V8 compiled Nov 25 2013 19:20:08
Hardware: V8.00
S/N: 20100215
Feature(s): RDI,FlashDL,FlashBP,JFlash,GDBFULL  returns O.K. (0025ms, 0092ms total)
T1D7C 000:094 JLINK_SetErrorOutHandler(...) (0000ms, 0092ms total)
T1D7C 000:094 JLINK_ExecCommand("ProjectFile = "D:\MYJTAG\CMSIS-DAP-master\bootloader\mdk\k20dx128\JLinkSettings.ini"", ...)  returns 0x00 (0000ms, 0092ms total)
T1D7C 000:097 JLINK_ExecCommand("Device = MK20DX128xxx5", ...)
                JLINK_AddMirrorAreaEx(Addr = 0x00000000, Size = 0x00000000) (0000ms, 0000ms total)
              Device "MK20DX128XXX5" selected (160 KB flash, 16 KB RAM).  returns 0x00 (0003ms, 0095ms total)
T1D7C 000:100 JLINK_ExecCommand("DisableConnectionTimeout", ...)  returns 0x01 (0000ms, 0095ms total)
T1D7C 000:100 JLINK_GetHardwareVersion()  returns 0x13880 (0000ms, 0095ms total)
T1D7C 000:100 JLINK_GetDLLVersion()  returns 47604 (0000ms, 0095ms total)
T1D7C 000:100 JLINK_GetFirmwareString(...) (0000ms, 0095ms total)
T1D7C 000:107 JLINK_GetDLLVersion()  returns 47604 (0000ms, 0095ms total)
T1D7C 000:107 JLINK_GetCompileDateTime() (0000ms, 0095ms total)
T1D7C 000:110 JLINK_GetFirmwareString(...) (0000ms, 0095ms total)
T1D7C 000:112 JLINK_GetHardwareVersion()  returns 0x13880 (0000ms, 0095ms total)
T1D7C 000:120 JLINK_TIF_Select(JLINKARM_TIF_SWD)  returns 0x00 (0006ms, 0101ms total)
T1D7C 000:126 JLINK_SetSpeed(100) (0001ms, 0102ms total)
T1D7C 000:127 JLINK_GetId() >0x108 TIF>Found SWD-DP with ID 0x2BA01477 >0x0D TIF> >0x28 TIF> >0x0D TIF> >0x28 TIF> >0x0D TIF> >0x21 TIF> >0x0D TIF> >0x28 TIF> >0x0D TIF> >0x21 TIF> >0x0D TIF> >0x21 TIF> >0x0D TIF> >0x21 TIF> >0x0D TIF> >0x21 TIF> >0x0D TIF> >0x21 TIF> >0x0D TIF> >0x21 TIF> >0x0D TIF> >0x21 TIF> >0x0D TIF> >0x21 TIF> >0x108 TIF>Found SWD-DP with ID 0x2BA01477 >0x0D TIF> >0x21 TIF> >0x0D TIF> >0x28 TIF> >0x0D TIF> >0x28 TIF> >0x0D TIF> >0x21 TIF> >0x0D TIF> >0x28 TIF> >0x0D TIF> >0x21 TIF>
 >0x0D TIF> >0x21 TIF> >0x0D TIF> >0x21 TIF> >0x0D TIF> >0x21 TIF> >0x0D TIF> >0x28 TIF> >0x0D TIF> >0x28 TIF> >0x0D TIF> >0x21 TIF> >0x0D TIF> >0x28 TIF> >0x0D TIF> >0x28 TIF> >0x0D TIF> >0x28 TIF> >0x0D TIF> >0x21 TIF> >0x0D TIF> >0x21 TIF> >0x0D TIF> >0x28 TIF> >0x0D TIF> >0x21 TIF> >0x0D TIF> >0x21 TIF>Found Cortex-M4 r0p1, Little endian. -- CPU_WriteMem(4 bytes @ 0xE0002000) -- CPU_ReadMem(4 bytes @ 0xE000EDF0) -- CPU_ReadMem(4 bytes @ 0xE0002000)FPUnit: 6 code (BP) slots and 2 literal slots
 -- CPU_ReadMem(4 bytes @ 0xE000EDFC) -- CPU_ReadMem(4 bytes @ 0xE0001000) -- CPU_WriteMem(4 bytes @ 0xE0001000) -- CPU_ReadMem(4 bytes @ 0xE00FF010)TPIU fitted.ETM fitted.ETB present.CSTF present. -- CPU_ReadMem(4 bytes @ 0xE00FF018) -- CPU_ReadMem(4 bytes @ 0xE00FF01C) -- CPU_ReadMem(4 bytes @ 0xE00FF020) -- CPU_ReadMem(2 bytes @ 0x40052000) >0x0D TIF> >0x21 TIF>  returns 0x2BA01477 (0262ms, 0364ms total)
T1D7C 000:389 JLINK_GetDeviceFamily()  returns 14 (0000ms, 0364ms total)
T1D7C 000:395 JLINK_ReadMem (0xE00FFFF0, 0x0010 Bytes, ...) -- CPU_ReadMem(16 bytes @ 0xE00FFFF0) -- Data:  0D 00 00 00 10 00 00 00 05 00 00 00 B1 00 00 00  returns 0x00 (0008ms, 0372ms total)
T1D7C 000:403 JLINK_ReadMem (0xE00FFFD0, 0x0020 Bytes, ...) -- CPU_ReadMem(32 bytes @ 0xE00FFFD0) -- Data:  04 00 00 00 00 00 00 00 00 00 00 00 00 00 00 00 ...  returns 0x00 (0009ms, 0381ms total)
T1D7C 000:412 JLINK_ReadMem (0xE00FF000, 0x0018 Bytes, ...) -- CPU_ReadMem(24 bytes @ 0xE00FF000) -- Data:  03 F0 F0 FF 03 20 F0 FF 03 30 F0 FF 03 10 F0 FF ...  returns 0x00 (0009ms, 0390ms total)
T1D7C 000:421 JLINK_ReadMemU32(0xE000ED00, 0x0001 Items, ...) -- CPU_ReadMem(4 bytes @ 0xE000ED00) -- Data:  41 C2 0F 41  returns 0x01 (0006ms, 0396ms total)
T1D7C 000:427 JLINK_ReadMemU32(0xE000EF40, 0x0001 Items, ...) -- CPU_ReadMem(4 bytes @ 0xE000EF40) -- Data:  00 00 00 00  returns 0x01 (0047ms, 0443ms total)
T1D7C 000:474 JLINK_ReadMemU32(0xE000EF44, 0x0001 Items, ...) -- CPU_ReadMem(4 bytes @ 0xE000EF44) -- Data:  00 00 00 00  returns 0x01 (0007ms, 0450ms total)
T1D7C 000:481 JLINK_SetResetType(JLINKARM_RESET_TYPE_NORMAL)  returns JLINKARM_RESET_TYPE_SOFT (0000ms, 0450ms total)
T1D7C 000:481 JLINK_Reset() -- CPU_WriteMem(4 bytes @ 0xE000EDF0) -- CPU_WriteMem(4 bytes @ 0xE000EDFC) >0x35 TIF> -- CPU_WriteMem(4 bytes @ 0xE000ED0C) -- CPU_ReadMem(4 bytes @ 0xE000EDF0) -- CPU_ReadMem(4 bytes @ 0xE000EDF0) -- CPU_WriteMem(4 bytes @ 0xE000EDF0) -- CPU_WriteMem(4 bytes @ 0xE000EDFC) -- CPU is running -- CPU_ReadMem(4 bytes @ 0xE000EDF0) -- CPU_ReadMem(8 bytes @ 0x20000000) -- CPU_WriteMem(8 bytes @ 0x20000000) -- CPU_WriteMem(8 bytes @ 0x20000000) -- CPU_WriteMem(4 bytes @ 0xE0002000)
 (0264ms, 0714ms total)
T1D7C 000:745 JLINK_Halt()  returns 0x00 (0001ms, 0715ms total)
T1D7C 000:746 JLINK_IsHalted()  returns TRUE (0000ms, 0715ms total)
T1D7C 000:746 JLINK_ReadMemU32(0xE000EDF0, 0x0001 Items, ...) -- CPU_ReadMem(4 bytes @ 0xE000EDF0) -- Data:  03 00 03 00  returns 0x01 (0006ms, 0721ms total)
T1D7C 000:752 JLINK_WriteU32(0xE000EDF0, 0xA05F0003) -- CPU_WriteMem(4 bytes @ 0xE000EDF0)  returns 0x00 (0003ms, 0724ms total)
T1D7C 000:755 JLINK_WriteU32(0xE000EDFC, 0x01000000) -- CPU_WriteMem(4 bytes @ 0xE000EDFC)  returns 0x00 (0004ms, 0728ms total)
T1D7C 000:780 JLINK_GetHWStatus(...)  returns 0x00 (0002ms, 0730ms total)
T1D7C 000:798 JLINK_GetNumBPUnits(Type = 0xFFFFFF00)  returns 0x06 (0000ms, 0730ms total)
T1D7C 000:798 JLINK_GetNumBPUnits(Type = 0xF0)  returns 0x2000 (0000ms, 0730ms total)
T1D7C 000:798 JLINK_GetNumWPUnits()  returns 0x04 (0000ms, 0730ms total)
T1D7C 000:808 JLINK_GetSpeed()  returns 0x64 (0000ms, 0730ms total)
T1D7C 000:813 JLINK_ReadMemU32(0xE000E004, 0x0001 Items, ...) -- CPU_ReadMem(4 bytes @ 0xE000E004) -- Data:  01 00 00 00  returns 0x01 (0006ms, 0736ms total)
T1D7C 000:819 JLINK_ReadMemU32(0xE000E004, 0x0001 Items, ...) -- CPU_ReadMem(4 bytes @ 0xE000E004) -- Data:  01 00 00 00  returns 0x01 (0006ms, 0742ms total)
T1D7C 000:825 JLINK_WriteMem(0xE0001000, 0x001C Bytes, ...) -- Data:  01 00 00 00 00 00 00 00 00 00 00 00 00 00 00 00 ... -- CPU_WriteMem(28 bytes @ 0xE0001000)  returns 0x1C (0007ms, 0749ms total)
T1D7C 000:832 JLINK_ReadMem (0xE0001000, 0x001C Bytes, ...) -- CPU_ReadMem(28 bytes @ 0xE0001000) -- Data:  01 00 00 40 00 00 00 00 00 00 00 00 00 00 00 00 ...  returns 0x00 (0009ms, 0758ms total)
T1D7C 000:841 JLINK_Halt()  returns 0x00 (0000ms, 0758ms total)
T1D7C 000:841 JLINK_IsHalted()  returns TRUE (0000ms, 0758ms total)
T1D7C 000:844 JLINK_WriteMem(0x20000000, 0x04F8 Bytes, ...) -- Data:  00 BE 0A E0 0D 78 2D 06 68 40 08 24 40 00 00 D3 ... -- CPU_WriteMem(1272 bytes @ 0x20000000)  returns 0x4F8 (0160ms, 0918ms total)
T1D7C 001:004 JLINK_WriteReg(R0, 0x00000000)  returns 0x00 (0001ms, 0919ms total)
T1D7C 001:005 JLINK_WriteReg(R1, 0x00B71B00)  returns 0x00 (0000ms, 0919ms total)
T1D7C 001:005 JLINK_WriteReg(R2, 0x00000001)  returns 0x00 (0000ms, 0919ms total)
T1D7C 001:005 JLINK_WriteReg(R3, 0x00000000)  returns 0x00 (0000ms, 0919ms total)
T1D7C 001:005 JLINK_WriteReg(R4, 0x00000000)  returns 0x00 (0000ms, 0919ms total)
T1D7C 001:005 JLINK_WriteReg(R5, 0x00000000)  returns 0x00 (0000ms, 0919ms total)
T1D7C 001:005 JLINK_WriteReg(R6, 0x00000000)  returns 0x00 (0000ms, 0919ms total)
T1D7C 001:005 JLINK_WriteReg(R7, 0x00000000)  returns 0x00 (0000ms, 0919ms total)
T1D7C 001:005 JLINK_WriteReg(R8, 0x00000000)  returns 0x00 (0000ms, 0919ms total)
T1D7C 001:005 JLINK_WriteReg(R9, 0x200004F0)  returns 0x00 (0000ms, 0919ms total)
T1D7C 001:005 JLINK_WriteReg(R10, 0x00000000)  returns 0x00 (0000ms, 0919ms total)
T1D7C 001:005 JLINK_WriteReg(R11, 0x00000000)  returns 0x00 (0000ms, 0919ms total)
T1D7C 001:005 JLINK_WriteReg(R12, 0x00000000)  returns 0x00 (0000ms, 0919ms total)
T1D7C 001:005 JLINK_WriteReg(R13 (SP), 0x20000800)  returns 0x00 (0000ms, 0919ms total)
T1D7C 001:005 JLINK_WriteReg(R14, 0x20000001)  returns 0x00 (0000ms, 0919ms total)
T1D7C 001:005 JLINK_WriteReg(R15 (PC), 0x20000020)  returns 0x00 (0000ms, 0919ms total)
T1D7C 001:005 JLINK_WriteReg(XPSR, 0x01000000)  returns 0x00 (0000ms, 0919ms total)
T1D7C 001:005 JLINK_WriteReg(MSP, 0x20000800)  returns 0x00 (0000ms, 0919ms total)
T1D7C 001:005 JLINK_WriteReg(PSP, 0x20000800)  returns 0x00 (0000ms, 0919ms total)
T1D7C 001:005 JLINK_WriteReg(CFBP, 0x00000000)  returns 0x00 (0000ms, 0919ms total)
T1D7C 001:005 JLINK_SetBPEx(Addr = 0x20000000, Type = 0xFFFFFFF2) -- CPU_ReadMem(2 bytes @ 0x20000000)  returns 0x00000001 (0007ms, 0926ms total)
T1D7C 001:012 JLINK_Go() -- CPU_WriteMem(2 bytes @ 0x20000000) -- CPU_WriteMem(4 bytes @ 0xE0002008) -- CPU_WriteMem(4 bytes @ 0xE000200C) -- CPU_WriteMem(4 bytes @ 0xE0002010) -- CPU_WriteMem(4 bytes @ 0xE0002014) -- CPU_WriteMem(4 bytes @ 0xE0002018) -- CPU_WriteMem(4 bytes @ 0xE000201C) (0042ms, 0968ms total)
T1D7C 001:054 JLINK_IsHalted() -- CPU_ReadMem(2 bytes @ 0x20000000)  returns TRUE (0099ms, 1067ms total)
T1D7C 001:154 JLINK_ReadReg(R15 (PC))  returns 0x20000000 (0000ms, 0968ms total)
T1D7C 001:154 JLINK_ClrBPEx(BPHandle = 0x00000001)  returns 0x00 (0000ms, 0968ms total)
T1D7C 001:154 JLINK_ReadReg(R0)  returns 0x00000000 (0000ms, 0968ms total)
T1D7C 001:154 JLINK_WriteReg(R0, 0x00000000)  returns 0x00 (0000ms, 0968ms total)
T1D7C 001:154 JLINK_WriteReg(R1, 0x00000800)  returns 0x00 (0000ms, 0968ms total)
T1D7C 001:154 JLINK_WriteReg(R2, 0x000000FF)  returns 0x00 (0000ms, 0968ms total)
T1D7C 001:154 JLINK_WriteReg(R3, 0x00000000)  returns 0x00 (0000ms, 0968ms total)
T1D7C 001:154 JLINK_WriteReg(R4, 0x00000000)  returns 0x00 (0000ms, 0968ms total)
T1D7C 001:154 JLINK_WriteReg(R5, 0x00000000)  returns 0x00 (0000ms, 0968ms total)
T1D7C 001:154 JLINK_WriteReg(R6, 0x00000000)  returns 0x00 (0000ms, 0968ms total)
T1D7C 001:154 JLINK_WriteReg(R7, 0x00000000)  returns 0x00 (0000ms, 0968ms total)
T1D7C 001:154 JLINK_WriteReg(R8, 0x00000000)  returns 0x00 (0000ms, 0968ms total)
T1D7C 001:154 JLINK_WriteReg(R9, 0x200004F0)  returns 0x00 (0000ms, 0968ms total)
T1D7C 001:154 JLINK_WriteReg(R10, 0x00000000)  returns 0x00 (0000ms, 0968ms total)
T1D7C 001:154 JLINK_WriteReg(R11, 0x00000000)  returns 0x00 (0000ms, 0968ms total)
T1D7C 001:154 JLINK_WriteReg(R12, 0x00000000)  returns 0x00 (0000ms, 0968ms total)
T1D7C 001:154 JLINK_WriteReg(R13 (SP), 0x20000800)  returns 0x00 (0000ms, 0968ms total)
T1D7C 001:154 JLINK_WriteReg(R14, 0x20000001)  returns 0x00 (0000ms, 0968ms total)
T1D7C 001:154 JLINK_WriteReg(R15 (PC), 0x20000078)  returns 0x00 (0000ms, 0968ms total)
T1D7C 001:154 JLINK_WriteReg(XPSR, 0x01000000)  returns 0x00 (0000ms, 0968ms total)
T1D7C 001:154 JLINK_WriteReg(MSP, 0x20000800)  returns 0x00 (0000ms, 0968ms total)
T1D7C 001:154 JLINK_WriteReg(PSP, 0x20000800)  returns 0x00 (0000ms, 0968ms total)
T1D7C 001:154 JLINK_WriteReg(CFBP, 0x00000000)  returns 0x00 (0000ms, 0968ms total)
T1D7C 001:154 JLINK_SetBPEx(Addr = 0x20000000, Type = 0xFFFFFFF2)  returns 0x00000002 (0000ms, 0968ms total)
T1D7C 001:154 JLINK_Go() (0018ms, 0986ms total)
T1D7C 001:172 JLINK_IsHalted() -- CPU_ReadMem(2 bytes @ 0x20000000)  returns TRUE (0099ms, 1085ms total)
T1D7C 001:271 JLINK_ReadReg(R15 (PC))  returns 0x20000000 (0000ms, 0986ms total)
T1D7C 001:271 JLINK_ClrBPEx(BPHandle = 0x00000002)  returns 0x00 (0000ms, 0986ms total)
T1D7C 001:271 JLINK_ReadReg(R0)  returns 0x00000000 (0000ms, 0986ms total)
T1D7C 001:272 JLINK_WriteReg(R0, 0x00000800)  returns 0x00 (0000ms, 0986ms total)
T1D7C 001:272 JLINK_WriteReg(R1, 0x00000800)  returns 0x00 (0000ms, 0986ms total)
T1D7C 001:272 JLINK_WriteReg(R2, 0x000000FF)  returns 0x00 (0000ms, 0986ms total)
T1D7C 001:272 JLINK_WriteReg(R3, 0x00000000)  returns 0x00 (0000ms, 0986ms total)
T1D7C 001:272 JLINK_WriteReg(R4, 0x00000000)  returns 0x00 (0000ms, 0986ms total)
T1D7C 001:272 JLINK_WriteReg(R5, 0x00000000)  returns 0x00 (0000ms, 0986ms total)
T1D7C 001:272 JLINK_WriteReg(R6, 0x00000000)  returns 0x00 (0000ms, 0986ms total)
T1D7C 001:272 JLINK_WriteReg(R7, 0x00000000)  returns 0x00 (0000ms, 0986ms total)
T1D7C 001:272 JLINK_WriteReg(R8, 0x00000000)  returns 0x00 (0000ms, 0986ms total)
T1D7C 001:272 JLINK_WriteReg(R9, 0x200004F0)  returns 0x00 (0000ms, 0986ms total)
T1D7C 001:272 JLINK_WriteReg(R10, 0x00000000)  returns 0x00 (0000ms, 0986ms total)
T1D7C 001:272 JLINK_WriteReg(R11, 0x00000000)  returns 0x00 (0000ms, 0986ms total)
T1D7C 001:272 JLINK_WriteReg(R12, 0x00000000)  returns 0x00 (0000ms, 0986ms total)
T1D7C 001:272 JLINK_WriteReg(R13 (SP), 0x20000800)  returns 0x00 (0000ms, 0986ms total)
T1D7C 001:272 JLINK_WriteReg(R14, 0x20000001)  returns 0x00 (0000ms, 0986ms total)
T1D7C 001:272 JLINK_WriteReg(R15 (PC), 0x20000078)  returns 0x00 (0001ms, 0987ms total)
T1D7C 001:273 JLINK_WriteReg(XPSR, 0x01000000)  returns 0x00 (0000ms, 0987ms total)
T1D7C 001:273 JLINK_WriteReg(MSP, 0x20000800)  returns 0x00 (0000ms, 0987ms total)
T1D7C 001:273 JLINK_WriteReg(PSP, 0x20000800)  returns 0x00 (0000ms, 0987ms total)
T1D7C 001:273 JLINK_WriteReg(CFBP, 0x00000000)  returns 0x00 (0000ms, 0987ms total)
T1D7C 001:273 JLINK_SetBPEx(Addr = 0x20000000, Type = 0xFFFFFFF2)  returns 0x00000003 (0000ms, 0987ms total)
T1D7C 001:273 JLINK_Go() (0018ms, 1005ms total)
T1D7C 001:291 JLINK_IsHalted() -- CPU_ReadMem(2 bytes @ 0x20000000)  returns TRUE (0098ms, 1103ms total)
T1D7C 001:389 JLINK_ReadReg(R15 (PC))  returns 0x20000000 (0001ms, 1006ms total)
T1D7C 001:390 JLINK_ClrBPEx(BPHandle = 0x00000003)  returns 0x00 (0000ms, 1006ms total)
T1D7C 001:390 JLINK_ReadReg(R0)  returns 0x00000000 (0000ms, 1006ms total)
T1D7C 001:390 JLINK_WriteReg(R0, 0x00001000)  returns 0x00 (0000ms, 1006ms total)
T1D7C 001:390 JLINK_WriteReg(R1, 0x00000800)  returns 0x00 (0000ms, 1006ms total)
T1D7C 001:390 JLINK_WriteReg(R2, 0x000000FF)  returns 0x00 (0000ms, 1006ms total)
T1D7C 001:390 JLINK_WriteReg(R3, 0x00000000)  returns 0x00 (0000ms, 1006ms total)
T1D7C 001:390 JLINK_WriteReg(R4, 0x00000000)  returns 0x00 (0000ms, 1006ms total)
T1D7C 001:390 JLINK_WriteReg(R5, 0x00000000)  returns 0x00 (0001ms, 1007ms total)
T1D7C 001:391 JLINK_WriteReg(R6, 0x00000000)  returns 0x00 (0000ms, 1007ms total)
T1D7C 001:391 JLINK_WriteReg(R7, 0x00000000)  returns 0x00 (0000ms, 1007ms total)
T1D7C 001:391 JLINK_WriteReg(R8, 0x00000000)  returns 0x00 (0000ms, 1007ms total)
T1D7C 001:391 JLINK_WriteReg(R9, 0x200004F0)  returns 0x00 (0000ms, 1007ms total)
T1D7C 001:391 JLINK_WriteReg(R10, 0x00000000)  returns 0x00 (0000ms, 1007ms total)
T1D7C 001:391 JLINK_WriteReg(R11, 0x00000000)  returns 0x00 (0000ms, 1007ms total)
T1D7C 001:391 JLINK_WriteReg(R12, 0x00000000)  returns 0x00 (0000ms, 1007ms total)
T1D7C 001:391 JLINK_WriteReg(R13 (SP), 0x20000800)  returns 0x00 (0000ms, 1007ms total)
T1D7C 001:391 JLINK_WriteReg(R14, 0x20000001)  returns 0x00 (0000ms, 1007ms total)
T1D7C 001:391 JLINK_WriteReg(R15 (PC), 0x20000078)  returns 0x00 (0000ms, 1007ms total)
T1D7C 001:391 JLINK_WriteReg(XPSR, 0x01000000)  returns 0x00 (0000ms, 1007ms total)
T1D7C 001:391 JLINK_WriteReg(MSP, 0x20000800)  returns 0x00 (0000ms, 1007ms total)
T1D7C 001:391 JLINK_WriteReg(PSP, 0x20000800)  returns 0x00 (0000ms, 1007ms total)
T1D7C 001:391 JLINK_WriteReg(CFBP, 0x00000000)  returns 0x00 (0000ms, 1007ms total)
T1D7C 001:391 JLINK_SetBPEx(Addr = 0x20000000, Type = 0xFFFFFFF2)  returns 0x00000004 (0000ms, 1007ms total)
T1D7C 001:391 JLINK_Go() (0018ms, 1025ms total)
T1D7C 001:409 JLINK_IsHalted() -- CPU_ReadMem(2 bytes @ 0x20000000)  returns TRUE (0099ms, 1124ms total)
T1D7C 001:508 JLINK_ReadReg(R15 (PC))  returns 0x20000000 (0000ms, 1025ms total)
T1D7C 001:508 JLINK_ClrBPEx(BPHandle = 0x00000004)  returns 0x00 (0000ms, 1025ms total)
T1D7C 001:508 JLINK_ReadReg(R0)  returns 0x00000000 (0000ms, 1025ms total)
T1D7C 001:509 JLINK_WriteReg(R0, 0x00001800)  returns 0x00 (0000ms, 1025ms total)
T1D7C 001:509 JLINK_WriteReg(R1, 0x00000800)  returns 0x00 (0000ms, 1025ms total)
T1D7C 001:509 JLINK_WriteReg(R2, 0x000000FF)  returns 0x00 (0000ms, 1025ms total)
T1D7C 001:509 JLINK_WriteReg(R3, 0x00000000)  returns 0x00 (0000ms, 1025ms total)
T1D7C 001:509 JLINK_WriteReg(R4, 0x00000000)  returns 0x00 (0000ms, 1025ms total)
T1D7C 001:509 JLINK_WriteReg(R5, 0x00000000)  returns 0x00 (0000ms, 1025ms total)
T1D7C 001:509 JLINK_WriteReg(R6, 0x00000000)  returns 0x00 (0000ms, 1025ms total)
T1D7C 001:509 JLINK_WriteReg(R7, 0x00000000)  returns 0x00 (0000ms, 1025ms total)
T1D7C 001:509 JLINK_WriteReg(R8, 0x00000000)  returns 0x00 (0000ms, 1025ms total)
T1D7C 001:509 JLINK_WriteReg(R9, 0x200004F0)  returns 0x00 (0000ms, 1025ms total)
T1D7C 001:509 JLINK_WriteReg(R10, 0x00000000)  returns 0x00 (0000ms, 1025ms total)
T1D7C 001:509 JLINK_WriteReg(R11, 0x00000000)  returns 0x00 (0000ms, 1025ms total)
T1D7C 001:509 JLINK_WriteReg(R12, 0x00000000)  returns 0x00 (0000ms, 1025ms total)
T1D7C 001:509 JLINK_WriteReg(R13 (SP), 0x20000800)  returns 0x00 (0000ms, 1025ms total)
T1D7C 001:509 JLINK_WriteReg(R14, 0x20000001)  returns 0x00 (0001ms, 1026ms total)
T1D7C 001:510 JLINK_WriteReg(R15 (PC), 0x20000078)  returns 0x00 (0000ms, 1026ms total)
T1D7C 001:510 JLINK_WriteReg(XPSR, 0x01000000)  returns 0x00 (0000ms, 1026ms total)
T1D7C 001:510 JLINK_WriteReg(MSP, 0x20000800)  returns 0x00 (0000ms, 1026ms total)
T1D7C 001:510 JLINK_WriteReg(PSP, 0x20000800)  returns 0x00 (0000ms, 1026ms total)
T1D7C 001:510 JLINK_WriteReg(CFBP, 0x00000000)  returns 0x00 (0000ms, 1026ms total)
T1D7C 001:510 JLINK_SetBPEx(Addr = 0x20000000, Type = 0xFFFFFFF2)  returns 0x00000005 (0000ms, 1026ms total)
T1D7C 001:510 JLINK_Go() (0021ms, 1047ms total)
T1D7C 001:531 JLINK_IsHalted() -- CPU_ReadMem(2 bytes @ 0x20000000)  returns TRUE (0099ms, 1146ms total)
T1D7C 001:630 JLINK_ReadReg(R15 (PC))  returns 0x20000000 (0000ms, 1047ms total)
T1D7C 001:630 JLINK_ClrBPEx(BPHandle = 0x00000005)  returns 0x00 (0000ms, 1047ms total)
T1D7C 001:630 JLINK_ReadReg(R0)  returns 0x00000000 (0000ms, 1047ms total)
T1D7C 001:631 JLINK_WriteReg(R0, 0x00002000)  returns 0x00 (0000ms, 1047ms total)
T1D7C 001:631 JLINK_WriteReg(R1, 0x00000800)  returns 0x00 (0000ms, 1047ms total)
T1D7C 001:631 JLINK_WriteReg(R2, 0x000000FF)  returns 0x00 (0000ms, 1047ms total)
T1D7C 001:631 JLINK_WriteReg(R3, 0x00000000)  returns 0x00 (0000ms, 1047ms total)
T1D7C 001:631 JLINK_WriteReg(R4, 0x00000000)  returns 0x00 (0000ms, 1047ms total)
T1D7C 001:631 JLINK_WriteReg(R5, 0x00000000)  returns 0x00 (0000ms, 1047ms total)
T1D7C 001:631 JLINK_WriteReg(R6, 0x00000000)  returns 0x00 (0000ms, 1047ms total)
T1D7C 001:631 JLINK_WriteReg(R7, 0x00000000)  returns 0x00 (0000ms, 1047ms total)
T1D7C 001:631 JLINK_WriteReg(R8, 0x00000000)  returns 0x00 (0000ms, 1047ms total)
T1D7C 001:631 JLINK_WriteReg(R9, 0x200004F0)  returns 0x00 (0000ms, 1047ms total)
T1D7C 001:631 JLINK_WriteReg(R10, 0x00000000)  returns 0x00 (0000ms, 1047ms total)
T1D7C 001:631 JLINK_WriteReg(R11, 0x00000000)  returns 0x00 (0000ms, 1047ms total)
T1D7C 001:631 JLINK_WriteReg(R12, 0x00000000)  returns 0x00 (0001ms, 1048ms total)
T1D7C 001:632 JLINK_WriteReg(R13 (SP), 0x20000800)  returns 0x00 (0000ms, 1048ms total)
T1D7C 001:632 JLINK_WriteReg(R14, 0x20000001)  returns 0x00 (0000ms, 1048ms total)
T1D7C 001:632 JLINK_WriteReg(R15 (PC), 0x20000078)  returns 0x00 (0000ms, 1048ms total)
T1D7C 001:632 JLINK_WriteReg(XPSR, 0x01000000)  returns 0x00 (0000ms, 1048ms total)
T1D7C 001:632 JLINK_WriteReg(MSP, 0x20000800)  returns 0x00 (0000ms, 1048ms total)
T1D7C 001:632 JLINK_WriteReg(PSP, 0x20000800)  returns 0x00 (0000ms, 1048ms total)
T1D7C 001:632 JLINK_WriteReg(CFBP, 0x00000000)  returns 0x00 (0000ms, 1048ms total)
T1D7C 001:632 JLINK_SetBPEx(Addr = 0x20000000, Type = 0xFFFFFFF2)  returns 0x00000006 (0000ms, 1048ms total)
T1D7C 001:632 JLINK_Go() (0018ms, 1066ms total)
T1D7C 001:650 JLINK_IsHalted() -- CPU_ReadMem(2 bytes @ 0x20000000)  returns TRUE (0099ms, 1165ms total)
T1D7C 001:749 JLINK_ReadReg(R15 (PC))  returns 0x20000000 (0000ms, 1066ms total)
T1D7C 001:749 JLINK_ClrBPEx(BPHandle = 0x00000006)  returns 0x00 (0000ms, 1066ms total)
T1D7C 001:749 JLINK_ReadReg(R0)  returns 0x00000000 (0000ms, 1066ms total)
T1D7C 001:750 JLINK_WriteReg(R0, 0x00002800)  returns 0x00 (0000ms, 1066ms total)
T1D7C 001:750 JLINK_WriteReg(R1, 0x00000800)  returns 0x00 (0000ms, 1066ms total)
T1D7C 001:750 JLINK_WriteReg(R2, 0x000000FF)  returns 0x00 (0000ms, 1066ms total)
T1D7C 001:750 JLINK_WriteReg(R3, 0x00000000)  returns 0x00 (0000ms, 1066ms total)
T1D7C 001:750 JLINK_WriteReg(R4, 0x00000000)  returns 0x00 (0000ms, 1066ms total)
T1D7C 001:750 JLINK_WriteReg(R5, 0x00000000)  returns 0x00 (0000ms, 1066ms total)
T1D7C 001:750 JLINK_WriteReg(R6, 0x00000000)  returns 0x00 (0000ms, 1066ms total)
T1D7C 001:750 JLINK_WriteReg(R7, 0x00000000)  returns 0x00 (0000ms, 1066ms total)
T1D7C 001:750 JLINK_WriteReg(R8, 0x00000000)  returns 0x00 (0000ms, 1066ms total)
T1D7C 001:750 JLINK_WriteReg(R9, 0x200004F0)  returns 0x00 (0000ms, 1066ms total)
T1D7C 001:750 JLINK_WriteReg(R10, 0x00000000)  returns 0x00 (0000ms, 1066ms total)
T1D7C 001:750 JLINK_WriteReg(R11, 0x00000000)  returns 0x00 (0000ms, 1066ms total)
T1D7C 001:750 JLINK_WriteReg(R12, 0x00000000)  returns 0x00 (0000ms, 1066ms total)
T1D7C 001:750 JLINK_WriteReg(R13 (SP), 0x20000800)  returns 0x00 (0000ms, 1066ms total)
T1D7C 001:750 JLINK_WriteReg(R14, 0x20000001)  returns 0x00 (0000ms, 1066ms total)
T1D7C 001:750 JLINK_WriteReg(R15 (PC), 0x20000078)  returns 0x00 (0000ms, 1066ms total)
T1D7C 001:750 JLINK_WriteReg(XPSR, 0x01000000)  returns 0x00 (0000ms, 1066ms total)
T1D7C 001:750 JLINK_WriteReg(MSP, 0x20000800)  returns 0x00 (0000ms, 1066ms total)
T1D7C 001:750 JLINK_WriteReg(PSP, 0x20000800)  returns 0x00 (0000ms, 1066ms total)
T1D7C 001:751 JLINK_WriteReg(CFBP, 0x00000000)  returns 0x00 (0000ms, 1066ms total)
T1D7C 001:751 JLINK_SetBPEx(Addr = 0x20000000, Type = 0xFFFFFFF2)  returns 0x00000007 (0000ms, 1066ms total)
T1D7C 001:751 JLINK_Go() (0018ms, 1084ms total)
T1D7C 001:769 JLINK_IsHalted() -- CPU_ReadMem(2 bytes @ 0x20000000)  returns TRUE (0099ms, 1183ms total)
T1D7C 001:868 JLINK_ReadReg(R15 (PC))  returns 0x20000000 (0000ms, 1084ms total)
T1D7C 001:868 JLINK_ClrBPEx(BPHandle = 0x00000007)  returns 0x00 (0000ms, 1084ms total)
T1D7C 001:868 JLINK_ReadReg(R0)  returns 0x00000000 (0000ms, 1084ms total)
T1D7C 001:869 JLINK_WriteReg(R0, 0x00003000)  returns 0x00 (0000ms, 1084ms total)
T1D7C 001:869 JLINK_WriteReg(R1, 0x00000800)  returns 0x00 (0000ms, 1084ms total)
T1D7C 001:869 JLINK_WriteReg(R2, 0x000000FF)  returns 0x00 (0000ms, 1084ms total)
T1D7C 001:869 JLINK_WriteReg(R3, 0x00000000)  returns 0x00 (0000ms, 1084ms total)
T1D7C 001:869 JLINK_WriteReg(R4, 0x00000000)  returns 0x00 (0000ms, 1084ms total)
T1D7C 001:869 JLINK_WriteReg(R5, 0x00000000)  returns 0x00 (0000ms, 1084ms total)
T1D7C 001:869 JLINK_WriteReg(R6, 0x00000000)  returns 0x00 (0000ms, 1084ms total)
T1D7C 001:869 JLINK_WriteReg(R7, 0x00000000)  returns 0x00 (0000ms, 1084ms total)
T1D7C 001:869 JLINK_WriteReg(R8, 0x00000000)  returns 0x00 (0000ms, 1084ms total)
T1D7C 001:869 JLINK_WriteReg(R9, 0x200004F0)  returns 0x00 (0000ms, 1084ms total)
T1D7C 001:869 JLINK_WriteReg(R10, 0x00000000)  returns 0x00 (0000ms, 1084ms total)
T1D7C 001:870 JLINK_WriteReg(R11, 0x00000000)  returns 0x00 (0000ms, 1084ms total)
T1D7C 001:870 JLINK_WriteReg(R12, 0x00000000)  returns 0x00 (0000ms, 1084ms total)
T1D7C 001:870 JLINK_WriteReg(R13 (SP), 0x20000800)  returns 0x00 (0000ms, 1084ms total)
T1D7C 001:870 JLINK_WriteReg(R14, 0x20000001)  returns 0x00 (0000ms, 1084ms total)
T1D7C 001:870 JLINK_WriteReg(R15 (PC), 0x20000078)  returns 0x00 (0000ms, 1084ms total)
T1D7C 001:870 JLINK_WriteReg(XPSR, 0x01000000)  returns 0x00 (0000ms, 1084ms total)
T1D7C 001:870 JLINK_WriteReg(MSP, 0x20000800)  returns 0x00 (0000ms, 1084ms total)
T1D7C 001:870 JLINK_WriteReg(PSP, 0x20000800)  returns 0x00 (0000ms, 1084ms total)
T1D7C 001:870 JLINK_WriteReg(CFBP, 0x00000000)  returns 0x00 (0000ms, 1084ms total)
T1D7C 001:870 JLINK_SetBPEx(Addr = 0x20000000, Type = 0xFFFFFFF2)  returns 0x00000008 (0000ms, 1084ms total)
T1D7C 001:870 JLINK_Go() (0018ms, 1102ms total)
T1D7C 001:888 JLINK_IsHalted() -- CPU_ReadMem(2 bytes @ 0x20000000)  returns TRUE (0099ms, 1201ms total)
T1D7C 001:987 JLINK_ReadReg(R15 (PC))  returns 0x20000000 (0000ms, 1102ms total)
T1D7C 001:987 JLINK_ClrBPEx(BPHandle = 0x00000008)  returns 0x00 (0000ms, 1102ms total)
T1D7C 001:987 JLINK_ReadReg(R0)  returns 0x00000000 (0000ms, 1102ms total)
T1D7C 001:988 JLINK_WriteReg(R0, 0x00003800)  returns 0x00 (0000ms, 1102ms total)
T1D7C 001:988 JLINK_WriteReg(R1, 0x00000800)  returns 0x00 (0000ms, 1102ms total)
T1D7C 001:988 JLINK_WriteReg(R2, 0x000000FF)  returns 0x00 (0000ms, 1102ms total)
T1D7C 001:988 JLINK_WriteReg(R3, 0x00000000)  returns 0x00 (0000ms, 1102ms total)
T1D7C 001:988 JLINK_WriteReg(R4, 0x00000000)  returns 0x00 (0000ms, 1102ms total)
T1D7C 001:988 JLINK_WriteReg(R5, 0x00000000)  returns 0x00 (0000ms, 1102ms total)
T1D7C 001:988 JLINK_WriteReg(R6, 0x00000000)  returns 0x00 (0000ms, 1102ms total)
T1D7C 001:988 JLINK_WriteReg(R7, 0x00000000)  returns 0x00 (0000ms, 1102ms total)
T1D7C 001:988 JLINK_WriteReg(R8, 0x00000000)  returns 0x00 (0000ms, 1102ms total)
T1D7C 001:988 JLINK_WriteReg(R9, 0x200004F0)  returns 0x00 (0000ms, 1102ms total)
T1D7C 001:988 JLINK_WriteReg(R10, 0x00000000)  returns 0x00 (0000ms, 1102ms total)
T1D7C 001:988 JLINK_WriteReg(R11, 0x00000000)  returns 0x00 (0000ms, 1102ms total)
T1D7C 001:988 JLINK_WriteReg(R12, 0x00000000)  returns 0x00 (0000ms, 1102ms total)
T1D7C 001:988 JLINK_WriteReg(R13 (SP), 0x20000800)  returns 0x00 (0000ms, 1102ms total)
T1D7C 001:988 JLINK_WriteReg(R14, 0x20000001)  returns 0x00 (0000ms, 1102ms total)
T1D7C 001:988 JLINK_WriteReg(R15 (PC), 0x20000078)  returns 0x00 (0000ms, 1102ms total)
T1D7C 001:988 JLINK_WriteReg(XPSR, 0x01000000)  returns 0x00 (0000ms, 1102ms total)
T1D7C 001:988 JLINK_WriteReg(MSP, 0x20000800)  returns 0x00 (0000ms, 1102ms total)
T1D7C 001:988 JLINK_WriteReg(PSP, 0x20000800)  returns 0x00 (0000ms, 1102ms total)
T1D7C 001:988 JLINK_WriteReg(CFBP, 0x00000000)  returns 0x00 (0000ms, 1102ms total)
T1D7C 001:988 JLINK_SetBPEx(Addr = 0x20000000, Type = 0xFFFFFFF2)  returns 0x00000009 (0000ms, 1102ms total)
T1D7C 001:988 JLINK_Go() (0018ms, 1120ms total)
T1D7C 002:006 JLINK_IsHalted() -- CPU_ReadMem(2 bytes @ 0x20000000)  returns TRUE (0100ms, 1220ms total)
T1D7C 002:106 JLINK_ReadReg(R15 (PC))  returns 0x20000000 (0000ms, 1120ms total)
T1D7C 002:106 JLINK_ClrBPEx(BPHandle = 0x00000009)  returns 0x00 (0001ms, 1121ms total)
T1D7C 002:107 JLINK_ReadReg(R0)  returns 0x00000000 (0000ms, 1121ms total)
T1D7C 002:110 JLINK_WriteReg(R0, 0x00004000)  returns 0x00 (0000ms, 1121ms total)
T1D7C 002:110 JLINK_WriteReg(R1, 0x00000800)  returns 0x00 (0000ms, 1121ms total)
T1D7C 002:110 JLINK_WriteReg(R2, 0x000000FF)  returns 0x00 (0000ms, 1121ms total)
T1D7C 002:110 JLINK_WriteReg(R3, 0x00000000)  returns 0x00 (0000ms, 1121ms total)
T1D7C 002:110 JLINK_WriteReg(R4, 0x00000000)  returns 0x00 (0000ms, 1121ms total)
T1D7C 002:110 JLINK_WriteReg(R5, 0x00000000)  returns 0x00 (0000ms, 1121ms total)
T1D7C 002:110 JLINK_WriteReg(R6, 0x00000000)  returns 0x00 (0000ms, 1121ms total)
T1D7C 002:110 JLINK_WriteReg(R7, 0x00000000)  returns 0x00 (0000ms, 1121ms total)
T1D7C 002:110 JLINK_WriteReg(R8, 0x00000000)  returns 0x00 (0000ms, 1121ms total)
T1D7C 002:110 JLINK_WriteReg(R9, 0x200004F0)  returns 0x00 (0000ms, 1121ms total)
T1D7C 002:110 JLINK_WriteReg(R10, 0x00000000)  returns 0x00 (0000ms, 1121ms total)
T1D7C 002:110 JLINK_WriteReg(R11, 0x00000000)  returns 0x00 (0000ms, 1121ms total)
T1D7C 002:110 JLINK_WriteReg(R12, 0x00000000)  returns 0x00 (0000ms, 1121ms total)
T1D7C 002:110 JLINK_WriteReg(R13 (SP), 0x20000800)  returns 0x00 (0000ms, 1121ms total)
T1D7C 002:110 JLINK_WriteReg(R14, 0x20000001)  returns 0x00 (0000ms, 1121ms total)
T1D7C 002:110 JLINK_WriteReg(R15 (PC), 0x20000078)  returns 0x00 (0000ms, 1121ms total)
T1D7C 002:110 JLINK_WriteReg(XPSR, 0x01000000)  returns 0x00 (0000ms, 1121ms total)
T1D7C 002:110 JLINK_WriteReg(MSP, 0x20000800)  returns 0x00 (0000ms, 1121ms total)
T1D7C 002:110 JLINK_WriteReg(PSP, 0x20000800)  returns 0x00 (0000ms, 1121ms total)
T1D7C 002:110 JLINK_WriteReg(CFBP, 0x00000000)  returns 0x00 (0000ms, 1121ms total)
T1D7C 002:110 JLINK_SetBPEx(Addr = 0x20000000, Type = 0xFFFFFFF2)  returns 0x0000000A (0000ms, 1121ms total)
T1D7C 002:110 JLINK_Go() (0019ms, 1140ms total)
T1D7C 002:129 JLINK_IsHalted() -- CPU_ReadMem(2 bytes @ 0x20000000)  returns TRUE (0098ms, 1238ms total)
T1D7C 002:228 JLINK_ReadReg(R15 (PC))  returns 0x20000000 (0000ms, 1140ms total)
T1D7C 002:228 JLINK_ClrBPEx(BPHandle = 0x0000000A)  returns 0x00 (0000ms, 1140ms total)
T1D7C 002:228 JLINK_ReadReg(R0)  returns 0x00000000 (0000ms, 1140ms total)
T1D7C 002:229 JLINK_WriteReg(R0, 0x00004800)  returns 0x00 (0000ms, 1140ms total)
T1D7C 002:229 JLINK_WriteReg(R1, 0x00000800)  returns 0x00 (0000ms, 1140ms total)
T1D7C 002:229 JLINK_WriteReg(R2, 0x000000FF)  returns 0x00 (0001ms, 1141ms total)
T1D7C 002:230 JLINK_WriteReg(R3, 0x00000000)  returns 0x00 (0000ms, 1141ms total)
T1D7C 002:230 JLINK_WriteReg(R4, 0x00000000)  returns 0x00 (0000ms, 1141ms total)
T1D7C 002:230 JLINK_WriteReg(R5, 0x00000000)  returns 0x00 (0000ms, 1141ms total)
T1D7C 002:230 JLINK_WriteReg(R6, 0x00000000)  returns 0x00 (0000ms, 1141ms total)
T1D7C 002:230 JLINK_WriteReg(R7, 0x00000000)  returns 0x00 (0000ms, 1141ms total)
T1D7C 002:230 JLINK_WriteReg(R8, 0x00000000)  returns 0x00 (0000ms, 1141ms total)
T1D7C 002:230 JLINK_WriteReg(R9, 0x200004F0)  returns 0x00 (0000ms, 1141ms total)
T1D7C 002:230 JLINK_WriteReg(R10, 0x00000000)  returns 0x00 (0000ms, 1141ms total)
T1D7C 002:230 JLINK_WriteReg(R11, 0x00000000)  returns 0x00 (0000ms, 1141ms total)
T1D7C 002:230 JLINK_WriteReg(R12, 0x00000000)  returns 0x00 (0000ms, 1141ms total)
T1D7C 002:230 JLINK_WriteReg(R13 (SP), 0x20000800)  returns 0x00 (0000ms, 1141ms total)
T1D7C 002:230 JLINK_WriteReg(R14, 0x20000001)  returns 0x00 (0000ms, 1141ms total)
T1D7C 002:230 JLINK_WriteReg(R15 (PC), 0x20000078)  returns 0x00 (0000ms, 1141ms total)
T1D7C 002:230 JLINK_WriteReg(XPSR, 0x01000000)  returns 0x00 (0000ms, 1141ms total)
T1D7C 002:230 JLINK_WriteReg(MSP, 0x20000800)  returns 0x00 (0000ms, 1141ms total)
T1D7C 002:230 JLINK_WriteReg(PSP, 0x20000800)  returns 0x00 (0000ms, 1141ms total)
T1D7C 002:230 JLINK_WriteReg(CFBP, 0x00000000)  returns 0x00 (0000ms, 1141ms total)
T1D7C 002:230 JLINK_SetBPEx(Addr = 0x20000000, Type = 0xFFFFFFF2)  returns 0x0000000B (0000ms, 1141ms total)
T1D7C 002:230 JLINK_Go() (0018ms, 1159ms total)
T1D7C 002:248 JLINK_IsHalted() -- CPU_ReadMem(2 bytes @ 0x20000000)  returns TRUE (0099ms, 1258ms total)
T1D7C 002:347 JLINK_ReadReg(R15 (PC))  returns 0x20000000 (0000ms, 1159ms total)
T1D7C 002:347 JLINK_ClrBPEx(BPHandle = 0x0000000B)  returns 0x00 (0000ms, 1159ms total)
T1D7C 002:347 JLINK_ReadReg(R0)  returns 0x00000000 (0000ms, 1159ms total)
T1D7C 002:349 JLINK_WriteReg(R0, 0x00005000)  returns 0x00 (0000ms, 1159ms total)
T1D7C 002:349 JLINK_WriteReg(R1, 0x00000800)  returns 0x00 (0000ms, 1159ms total)
T1D7C 002:349 JLINK_WriteReg(R2, 0x000000FF)  returns 0x00 (0000ms, 1159ms total)
T1D7C 002:349 JLINK_WriteReg(R3, 0x00000000)  returns 0x00 (0000ms, 1159ms total)
T1D7C 002:349 JLINK_WriteReg(R4, 0x00000000)  returns 0x00 (0000ms, 1159ms total)
T1D7C 002:349 JLINK_WriteReg(R5, 0x00000000)  returns 0x00 (0000ms, 1159ms total)
T1D7C 002:349 JLINK_WriteReg(R6, 0x00000000)  returns 0x00 (0000ms, 1159ms total)
T1D7C 002:349 JLINK_WriteReg(R7, 0x00000000)  returns 0x00 (0000ms, 1159ms total)
T1D7C 002:349 JLINK_WriteReg(R8, 0x00000000)  returns 0x00 (0000ms, 1159ms total)
T1D7C 002:349 JLINK_WriteReg(R9, 0x200004F0)  returns 0x00 (0000ms, 1159ms total)
T1D7C 002:349 JLINK_WriteReg(R10, 0x00000000)  returns 0x00 (0000ms, 1159ms total)
T1D7C 002:349 JLINK_WriteReg(R11, 0x00000000)  returns 0x00 (0000ms, 1159ms total)
T1D7C 002:349 JLINK_WriteReg(R12, 0x00000000)  returns 0x00 (0000ms, 1159ms total)
T1D7C 002:349 JLINK_WriteReg(R13 (SP), 0x20000800)  returns 0x00 (0000ms, 1159ms total)
T1D7C 002:349 JLINK_WriteReg(R14, 0x20000001)  returns 0x00 (0000ms, 1159ms total)
T1D7C 002:349 JLINK_WriteReg(R15 (PC), 0x20000078)  returns 0x00 (0000ms, 1159ms total)
T1D7C 002:349 JLINK_WriteReg(XPSR, 0x01000000)  returns 0x00 (0000ms, 1159ms total)
T1D7C 002:349 JLINK_WriteReg(MSP, 0x20000800)  returns 0x00 (0000ms, 1159ms total)
T1D7C 002:349 JLINK_WriteReg(PSP, 0x20000800)  returns 0x00 (0001ms, 1160ms total)
T1D7C 002:350 JLINK_WriteReg(CFBP, 0x00000000)  returns 0x00 (0000ms, 1160ms total)
T1D7C 002:350 JLINK_SetBPEx(Addr = 0x20000000, Type = 0xFFFFFFF2)  returns 0x0000000C (0000ms, 1160ms total)
T1D7C 002:350 JLINK_Go() (0018ms, 1178ms total)
T1D7C 002:368 JLINK_IsHalted() -- CPU_ReadMem(2 bytes @ 0x20000000)  returns TRUE (0098ms, 1276ms total)
T1D7C 002:466 JLINK_ReadReg(R15 (PC))  returns 0x20000000 (0000ms, 1178ms total)
T1D7C 002:466 JLINK_ClrBPEx(BPHandle = 0x0000000C)  returns 0x00 (0000ms, 1178ms total)
T1D7C 002:466 JLINK_ReadReg(R0)  returns 0x00000000 (0000ms, 1178ms total)
T1D7C 002:467 JLINK_WriteReg(R0, 0x00005800)  returns 0x00 (0000ms, 1178ms total)
T1D7C 002:467 JLINK_WriteReg(R1, 0x00000800)  returns 0x00 (0000ms, 1178ms total)
T1D7C 002:467 JLINK_WriteReg(R2, 0x000000FF)  returns 0x00 (0000ms, 1178ms total)
T1D7C 002:467 JLINK_WriteReg(R3, 0x00000000)  returns 0x00 (0000ms, 1178ms total)
T1D7C 002:467 JLINK_WriteReg(R4, 0x00000000)  returns 0x00 (0001ms, 1179ms total)
T1D7C 002:468 JLINK_WriteReg(R5, 0x00000000)  returns 0x00 (0000ms, 1179ms total)
T1D7C 002:468 JLINK_WriteReg(R6, 0x00000000)  returns 0x00 (0000ms, 1179ms total)
T1D7C 002:468 JLINK_WriteReg(R7, 0x00000000)  returns 0x00 (0000ms, 1179ms total)
T1D7C 002:468 JLINK_WriteReg(R8, 0x00000000)  returns 0x00 (0000ms, 1179ms total)
T1D7C 002:468 JLINK_WriteReg(R9, 0x200004F0)  returns 0x00 (0000ms, 1179ms total)
T1D7C 002:468 JLINK_WriteReg(R10, 0x00000000)  returns 0x00 (0000ms, 1179ms total)
T1D7C 002:468 JLINK_WriteReg(R11, 0x00000000)  returns 0x00 (0000ms, 1179ms total)
T1D7C 002:468 JLINK_WriteReg(R12, 0x00000000)  returns 0x00 (0000ms, 1179ms total)
T1D7C 002:468 JLINK_WriteReg(R13 (SP), 0x20000800)  returns 0x00 (0000ms, 1179ms total)
T1D7C 002:468 JLINK_WriteReg(R14, 0x20000001)  returns 0x00 (0000ms, 1179ms total)
T1D7C 002:468 JLINK_WriteReg(R15 (PC), 0x20000078)  returns 0x00 (0000ms, 1179ms total)
T1D7C 002:468 JLINK_WriteReg(XPSR, 0x01000000)  returns 0x00 (0000ms, 1179ms total)
T1D7C 002:468 JLINK_WriteReg(MSP, 0x20000800)  returns 0x00 (0000ms, 1179ms total)
T1D7C 002:468 JLINK_WriteReg(PSP, 0x20000800)  returns 0x00 (0000ms, 1179ms total)
T1D7C 002:468 JLINK_WriteReg(CFBP, 0x00000000)  returns 0x00 (0000ms, 1179ms total)
T1D7C 002:468 JLINK_SetBPEx(Addr = 0x20000000, Type = 0xFFFFFFF2)  returns 0x0000000D (0000ms, 1179ms total)
T1D7C 002:468 JLINK_Go() (0018ms, 1197ms total)
T1D7C 002:486 JLINK_IsHalted() -- CPU_ReadMem(2 bytes @ 0x20000000)  returns TRUE (0099ms, 1296ms total)
T1D7C 002:585 JLINK_ReadReg(R15 (PC))  returns 0x20000000 (0000ms, 1197ms total)
T1D7C 002:585 JLINK_ClrBPEx(BPHandle = 0x0000000D)  returns 0x00 (0000ms, 1197ms total)
T1D7C 002:585 JLINK_ReadReg(R0)  returns 0x00000000 (0000ms, 1197ms total)
T1D7C 002:586 JLINK_WriteReg(R0, 0x00006000)  returns 0x00 (0000ms, 1197ms total)
T1D7C 002:586 JLINK_WriteReg(R1, 0x00000800)  returns 0x00 (0000ms, 1197ms total)
T1D7C 002:586 JLINK_WriteReg(R2, 0x000000FF)  returns 0x00 (0000ms, 1197ms total)
T1D7C 002:586 JLINK_WriteReg(R3, 0x00000000)  returns 0x00 (0000ms, 1197ms total)
T1D7C 002:586 JLINK_WriteReg(R4, 0x00000000)  returns 0x00 (0000ms, 1197ms total)
T1D7C 002:586 JLINK_WriteReg(R5, 0x00000000)  returns 0x00 (0000ms, 1197ms total)
T1D7C 002:586 JLINK_WriteReg(R6, 0x00000000)  returns 0x00 (0000ms, 1197ms total)
T1D7C 002:586 JLINK_WriteReg(R7, 0x00000000)  returns 0x00 (0000ms, 1197ms total)
T1D7C 002:587 JLINK_WriteReg(R8, 0x00000000)  returns 0x00 (0000ms, 1197ms total)
T1D7C 002:587 JLINK_WriteReg(R9, 0x200004F0)  returns 0x00 (0000ms, 1197ms total)
T1D7C 002:587 JLINK_WriteReg(R10, 0x00000000)  returns 0x00 (0000ms, 1197ms total)
T1D7C 002:587 JLINK_WriteReg(R11, 0x00000000)  returns 0x00 (0000ms, 1197ms total)
T1D7C 002:587 JLINK_WriteReg(R12, 0x00000000)  returns 0x00 (0000ms, 1197ms total)
T1D7C 002:587 JLINK_WriteReg(R13 (SP), 0x20000800)  returns 0x00 (0000ms, 1197ms total)
T1D7C 002:587 JLINK_WriteReg(R14, 0x20000001)  returns 0x00 (0000ms, 1197ms total)
T1D7C 002:587 JLINK_WriteReg(R15 (PC), 0x20000078)  returns 0x00 (0000ms, 1197ms total)
T1D7C 002:587 JLINK_WriteReg(XPSR, 0x01000000)  returns 0x00 (0000ms, 1197ms total)
T1D7C 002:587 JLINK_WriteReg(MSP, 0x20000800)  returns 0x00 (0000ms, 1197ms total)
T1D7C 002:587 JLINK_WriteReg(PSP, 0x20000800)  returns 0x00 (0000ms, 1197ms total)
T1D7C 002:587 JLINK_WriteReg(CFBP, 0x00000000)  returns 0x00 (0000ms, 1197ms total)
T1D7C 002:587 JLINK_SetBPEx(Addr = 0x20000000, Type = 0xFFFFFFF2)  returns 0x0000000E (0000ms, 1197ms total)
T1D7C 002:587 JLINK_Go() (0018ms, 1215ms total)
T1D7C 002:605 JLINK_IsHalted() -- CPU_ReadMem(2 bytes @ 0x20000000)  returns TRUE (0099ms, 1314ms total)
T1D7C 002:704 JLINK_ReadReg(R15 (PC))  returns 0x20000000 (0000ms, 1215ms total)
T1D7C 002:704 JLINK_ClrBPEx(BPHandle = 0x0000000E)  returns 0x00 (0000ms, 1215ms total)
T1D7C 002:704 JLINK_ReadReg(R0)  returns 0x00000000 (0000ms, 1215ms total)
T1D7C 002:705 JLINK_WriteReg(R0, 0x00006800)  returns 0x00 (0000ms, 1215ms total)
T1D7C 002:705 JLINK_WriteReg(R1, 0x00000800)  returns 0x00 (0000ms, 1215ms total)
T1D7C 002:705 JLINK_WriteReg(R2, 0x000000FF)  returns 0x00 (0000ms, 1215ms total)
T1D7C 002:705 JLINK_WriteReg(R3, 0x00000000)  returns 0x00 (0000ms, 1215ms total)
T1D7C 002:705 JLINK_WriteReg(R4, 0x00000000)  returns 0x00 (0000ms, 1215ms total)
T1D7C 002:705 JLINK_WriteReg(R5, 0x00000000)  returns 0x00 (0000ms, 1215ms total)
T1D7C 002:705 JLINK_WriteReg(R6, 0x00000000)  returns 0x00 (0000ms, 1215ms total)
T1D7C 002:705 JLINK_WriteReg(R7, 0x00000000)  returns 0x00 (0000ms, 1215ms total)
T1D7C 002:705 JLINK_WriteReg(R8, 0x00000000)  returns 0x00 (0000ms, 1215ms total)
T1D7C 002:705 JLINK_WriteReg(R9, 0x200004F0)  returns 0x00 (0000ms, 1215ms total)
T1D7C 002:705 JLINK_WriteReg(R10, 0x00000000)  returns 0x00 (0000ms, 1215ms total)
T1D7C 002:705 JLINK_WriteReg(R11, 0x00000000)  returns 0x00 (0000ms, 1215ms total)
T1D7C 002:705 JLINK_WriteReg(R12, 0x00000000)  returns 0x00 (0000ms, 1215ms total)
T1D7C 002:705 JLINK_WriteReg(R13 (SP), 0x20000800)  returns 0x00 (0000ms, 1215ms total)
T1D7C 002:705 JLINK_WriteReg(R14, 0x20000001)  returns 0x00 (0000ms, 1215ms total)
T1D7C 002:705 JLINK_WriteReg(R15 (PC), 0x20000078)  returns 0x00 (0000ms, 1215ms total)
T1D7C 002:705 JLINK_WriteReg(XPSR, 0x01000000)  returns 0x00 (0000ms, 1215ms total)
T1D7C 002:705 JLINK_WriteReg(MSP, 0x20000800)  returns 0x00 (0000ms, 1215ms total)
T1D7C 002:705 JLINK_WriteReg(PSP, 0x20000800)  returns 0x00 (0000ms, 1215ms total)
T1D7C 002:705 JLINK_WriteReg(CFBP, 0x00000000)  returns 0x00 (0000ms, 1215ms total)
T1D7C 002:705 JLINK_SetBPEx(Addr = 0x20000000, Type = 0xFFFFFFF2)  returns 0x0000000F (0000ms, 1215ms total)
T1D7C 002:705 JLINK_Go() (0019ms, 1234ms total)
T1D7C 002:724 JLINK_IsHalted() -- CPU_ReadMem(2 bytes @ 0x20000000)  returns TRUE (0098ms, 1332ms total)
T1D7C 002:822 JLINK_ReadReg(R15 (PC))  returns 0x20000000 (0000ms, 1234ms total)
T1D7C 002:822 JLINK_ClrBPEx(BPHandle = 0x0000000F)  returns 0x00 (0000ms, 1234ms total)
T1D7C 002:822 JLINK_ReadReg(R0)  returns 0x00000000 (0000ms, 1234ms total)
T1D7C 002:823 JLINK_WriteReg(R0, 0x00007000)  returns 0x00 (0000ms, 1234ms total)
T1D7C 002:823 JLINK_WriteReg(R1, 0x00000800)  returns 0x00 (0000ms, 1234ms total)
T1D7C 002:823 JLINK_WriteReg(R2, 0x000000FF)  returns 0x00 (0000ms, 1234ms total)
T1D7C 002:823 JLINK_WriteReg(R3, 0x00000000)  returns 0x00 (0000ms, 1234ms total)
T1D7C 002:823 JLINK_WriteReg(R4, 0x00000000)  returns 0x00 (0001ms, 1235ms total)
T1D7C 002:824 JLINK_WriteReg(R5, 0x00000000)  returns 0x00 (0000ms, 1235ms total)
T1D7C 002:824 JLINK_WriteReg(R6, 0x00000000)  returns 0x00 (0000ms, 1235ms total)
T1D7C 002:824 JLINK_WriteReg(R7, 0x00000000)  returns 0x00 (0000ms, 1235ms total)
T1D7C 002:824 JLINK_WriteReg(R8, 0x00000000)  returns 0x00 (0000ms, 1235ms total)
T1D7C 002:824 JLINK_WriteReg(R9, 0x200004F0)  returns 0x00 (0000ms, 1235ms total)
T1D7C 002:824 JLINK_WriteReg(R10, 0x00000000)  returns 0x00 (0000ms, 1235ms total)
T1D7C 002:824 JLINK_WriteReg(R11, 0x00000000)  returns 0x00 (0000ms, 1235ms total)
T1D7C 002:824 JLINK_WriteReg(R12, 0x00000000)  returns 0x00 (0000ms, 1235ms total)
T1D7C 002:824 JLINK_WriteReg(R13 (SP), 0x20000800)  returns 0x00 (0000ms, 1235ms total)
T1D7C 002:824 JLINK_WriteReg(R14, 0x20000001)  returns 0x00 (0000ms, 1235ms total)
T1D7C 002:824 JLINK_WriteReg(R15 (PC), 0x20000078)  returns 0x00 (0000ms, 1235ms total)
T1D7C 002:824 JLINK_WriteReg(XPSR, 0x01000000)  returns 0x00 (0000ms, 1235ms total)
T1D7C 002:824 JLINK_WriteReg(MSP, 0x20000800)  returns 0x00 (0000ms, 1235ms total)
T1D7C 002:824 JLINK_WriteReg(PSP, 0x20000800)  returns 0x00 (0000ms, 1235ms total)
T1D7C 002:824 JLINK_WriteReg(CFBP, 0x00000000)  returns 0x00 (0000ms, 1235ms total)
T1D7C 002:824 JLINK_SetBPEx(Addr = 0x20000000, Type = 0xFFFFFFF2)  returns 0x00000010 (0000ms, 1235ms total)
T1D7C 002:824 JLINK_Go() (0018ms, 1253ms total)
T1D7C 002:842 JLINK_IsHalted() -- CPU_ReadMem(2 bytes @ 0x20000000)  returns TRUE (0099ms, 1352ms total)
T1D7C 002:941 JLINK_ReadReg(R15 (PC))  returns 0x20000000 (0000ms, 1253ms total)
T1D7C 002:941 JLINK_ClrBPEx(BPHandle = 0x00000010)  returns 0x00 (0000ms, 1253ms total)
T1D7C 002:941 JLINK_ReadReg(R0)  returns 0x00000000 (0000ms, 1253ms total)
T1D7C 002:942 JLINK_WriteReg(R0, 0x00000001)  returns 0x00 (0000ms, 1253ms total)
T1D7C 002:942 JLINK_WriteReg(R1, 0x00000800)  returns 0x00 (0000ms, 1253ms total)
T1D7C 002:942 JLINK_WriteReg(R2, 0x000000FF)  returns 0x00 (0000ms, 1253ms total)
T1D7C 002:942 JLINK_WriteReg(R3, 0x00000000)  returns 0x00 (0000ms, 1253ms total)
T1D7C 002:942 JLINK_WriteReg(R4, 0x00000000)  returns 0x00 (0000ms, 1253ms total)
T1D7C 002:942 JLINK_WriteReg(R5, 0x00000000)  returns 0x00 (0000ms, 1253ms total)
T1D7C 002:942 JLINK_WriteReg(R6, 0x00000000)  returns 0x00 (0000ms, 1253ms total)
T1D7C 002:942 JLINK_WriteReg(R7, 0x00000000)  returns 0x00 (0000ms, 1253ms total)
T1D7C 002:942 JLINK_WriteReg(R8, 0x00000000)  returns 0x00 (0000ms, 1253ms total)
T1D7C 002:942 JLINK_WriteReg(R9, 0x200004F0)  returns 0x00 (0000ms, 1253ms total)
T1D7C 002:943 JLINK_WriteReg(R10, 0x00000000)  returns 0x00 (0000ms, 1254ms total)
T1D7C 002:943 JLINK_WriteReg(R11, 0x00000000)  returns 0x00 (0000ms, 1254ms total)
T1D7C 002:943 JLINK_WriteReg(R12, 0x00000000)  returns 0x00 (0000ms, 1254ms total)
T1D7C 002:943 JLINK_WriteReg(R13 (SP), 0x20000800)  returns 0x00 (0000ms, 1254ms total)
T1D7C 002:943 JLINK_WriteReg(R14, 0x20000001)  returns 0x00 (0000ms, 1254ms total)
T1D7C 002:943 JLINK_WriteReg(R15 (PC), 0x20000074)  returns 0x00 (0000ms, 1254ms total)
T1D7C 002:943 JLINK_WriteReg(XPSR, 0x01000000)  returns 0x00 (0000ms, 1254ms total)
T1D7C 002:943 JLINK_WriteReg(MSP, 0x20000800)  returns 0x00 (0000ms, 1254ms total)
T1D7C 002:943 JLINK_WriteReg(PSP, 0x20000800)  returns 0x00 (0000ms, 1254ms total)
T1D7C 002:943 JLINK_WriteReg(CFBP, 0x00000000)  returns 0x00 (0000ms, 1254ms total)
T1D7C 002:943 JLINK_SetBPEx(Addr = 0x20000000, Type = 0xFFFFFFF2)  returns 0x00000011 (0000ms, 1254ms total)
T1D7C 002:943 JLINK_Go() (0018ms, 1272ms total)
T1D7C 002:961 JLINK_IsHalted() -- CPU_ReadMem(2 bytes @ 0x20000000)  returns TRUE (0099ms, 1371ms total)
T1D7C 003:061 JLINK_ReadReg(R15 (PC))  returns 0x20000000 (0001ms, 1273ms total)
T1D7C 003:062 JLINK_ClrBPEx(BPHandle = 0x00000011)  returns 0x00 (0000ms, 1273ms total)
T1D7C 003:062 JLINK_ReadReg(R0)  returns 0x00000000 (0000ms, 1273ms total)
T1D7C 003:126 JLINK_WriteMem(0x20000000, 0x04F8 Bytes, ...) -- Data:  00 BE 0A E0 0D 78 2D 06 68 40 08 24 40 00 00 D3 ... -- CPU_WriteMem(1272 bytes @ 0x20000000)  returns 0x4F8 (0160ms, 1433ms total)
T1D7C 003:287 JLINK_WriteReg(R0, 0x00000000)  returns 0x00 (0000ms, 1433ms total)
T1D7C 003:287 JLINK_WriteReg(R1, 0x00B71B00)  returns 0x00 (0000ms, 1433ms total)
T1D7C 003:287 JLINK_WriteReg(R2, 0x00000002)  returns 0x00 (0000ms, 1433ms total)
T1D7C 003:287 JLINK_WriteReg(R3, 0x00000000)  returns 0x00 (0000ms, 1433ms total)
T1D7C 003:287 JLINK_WriteReg(R4, 0x00000000)  returns 0x00 (0000ms, 1433ms total)
T1D7C 003:287 JLINK_WriteReg(R5, 0x00000000)  returns 0x00 (0000ms, 1433ms total)
T1D7C 003:287 JLINK_WriteReg(R6, 0x00000000)  returns 0x00 (0000ms, 1433ms total)
T1D7C 003:287 JLINK_WriteReg(R7, 0x00000000)  returns 0x00 (0000ms, 1433ms total)
T1D7C 003:287 JLINK_WriteReg(R8, 0x00000000)  returns 0x00 (0000ms, 1433ms total)
T1D7C 003:287 JLINK_WriteReg(R9, 0x200004F0)  returns 0x00 (0000ms, 1433ms total)
T1D7C 003:287 JLINK_WriteReg(R10, 0x00000000)  returns 0x00 (0000ms, 1433ms total)
T1D7C 003:287 JLINK_WriteReg(R11, 0x00000000)  returns 0x00 (0000ms, 1433ms total)
T1D7C 003:287 JLINK_WriteReg(R12, 0x00000000)  returns 0x00 (0000ms, 1433ms total)
T1D7C 003:287 JLINK_WriteReg(R13 (SP), 0x20000800)  returns 0x00 (0001ms, 1434ms total)
T1D7C 003:288 JLINK_WriteReg(R14, 0x20000001)  returns 0x00 (0000ms, 1434ms total)
T1D7C 003:288 JLINK_WriteReg(R15 (PC), 0x20000020)  returns 0x00 (0000ms, 1434ms total)
T1D7C 003:288 JLINK_WriteReg(XPSR, 0x01000000)  returns 0x00 (0000ms, 1434ms total)
T1D7C 003:288 JLINK_WriteReg(MSP, 0x20000800)  returns 0x00 (0000ms, 1434ms total)
T1D7C 003:288 JLINK_WriteReg(PSP, 0x20000800)  returns 0x00 (0000ms, 1434ms total)
T1D7C 003:288 JLINK_WriteReg(CFBP, 0x00000000)  returns 0x00 (0000ms, 1434ms total)
T1D7C 003:288 JLINK_SetBPEx(Addr = 0x20000000, Type = 0xFFFFFFF2) -- CPU_ReadMem(2 bytes @ 0x20000000)  returns 0x00000012 (0006ms, 1440ms total)
T1D7C 003:294 JLINK_Go() -- CPU_WriteMem(2 bytes @ 0x20000000) (0019ms, 1459ms total)
T1D7C 003:313 JLINK_IsHalted() -- CPU_ReadMem(2 bytes @ 0x20000000)  returns TRUE (0098ms, 1557ms total)
T1D7C 003:411 JLINK_ReadReg(R15 (PC))  returns 0x20000000 (0000ms, 1459ms total)
T1D7C 003:411 JLINK_ClrBPEx(BPHandle = 0x00000012)  returns 0x00 (0000ms, 1459ms total)
T1D7C 003:411 JLINK_ReadReg(R0)  returns 0x00000000 (0000ms, 1459ms total)
T1D7C 003:412 JLINK_WriteMem(0x20000520, 0x0200 Bytes, ...) -- Data:  90 0D 00 20 5D 06 00 00 65 06 00 00 67 06 00 00 ... -- CPU_WriteMem(512 bytes @ 0x20000520)  returns 0x200 (0065ms, 1524ms total)
T1D7C 003:477 JLINK_WriteReg(R0, 0x00000000)  returns 0x00 (0001ms, 1525ms total)
T1D7C 003:478 JLINK_WriteReg(R1, 0x00000200)  returns 0x00 (0000ms, 1525ms total)
T1D7C 003:478 JLINK_WriteReg(R2, 0x20000520)  returns 0x00 (0000ms, 1525ms total)
T1D7C 003:478 JLINK_WriteReg(R3, 0x00000000)  returns 0x00 (0000ms, 1525ms total)
T1D7C 003:478 JLINK_WriteReg(R4, 0x00000000)  returns 0x00 (0000ms, 1525ms total)
T1D7C 003:478 JLINK_WriteReg(R5, 0x00000000)  returns 0x00 (0000ms, 1525ms total)
T1D7C 003:478 JLINK_WriteReg(R6, 0x00000000)  returns 0x00 (0000ms, 1525ms total)
T1D7C 003:478 JLINK_WriteReg(R7, 0x00000000)  returns 0x00 (0000ms, 1525ms total)
T1D7C 003:478 JLINK_WriteReg(R8, 0x00000000)  returns 0x00 (0000ms, 1525ms total)
T1D7C 003:478 JLINK_WriteReg(R9, 0x200004F0)  returns 0x00 (0000ms, 1525ms total)
T1D7C 003:478 JLINK_WriteReg(R10, 0x00000000)  returns 0x00 (0000ms, 1525ms total)
T1D7C 003:478 JLINK_WriteReg(R11, 0x00000000)  returns 0x00 (0000ms, 1525ms total)
T1D7C 003:478 JLINK_WriteReg(R12, 0x00000000)  returns 0x00 (0000ms, 1525ms total)
T1D7C 003:478 JLINK_WriteReg(R13 (SP), 0x20000800)  returns 0x00 (0000ms, 1525ms total)
T1D7C 003:478 JLINK_WriteReg(R14, 0x20000001)  returns 0x00 (0000ms, 1525ms total)
T1D7C 003:478 JLINK_WriteReg(R15 (PC), 0x200000EA)  returns 0x00 (0000ms, 1525ms total)
T1D7C 003:478 JLINK_WriteReg(XPSR, 0x01000000)  returns 0x00 (0000ms, 1525ms total)
T1D7C 003:478 JLINK_WriteReg(MSP, 0x20000800)  returns 0x00 (0000ms, 1525ms total)
T1D7C 003:478 JLINK_WriteReg(PSP, 0x20000800)  returns 0x00 (0000ms, 1525ms total)
T1D7C 003:478 JLINK_WriteReg(CFBP, 0x00000000)  returns 0x00 (0000ms, 1525ms total)
T1D7C 003:478 JLINK_SetBPEx(Addr = 0x20000000, Type = 0xFFFFFFF2)  returns 0x00000013 (0000ms, 1525ms total)
T1D7C 003:478 JLINK_Go() (0018ms, 1543ms total)
T1D7C 003:496 JLINK_IsHalted()  returns FALSE (0007ms, 1550ms total)
T1D7C 003:576 JLINK_IsHalted() -- CPU_ReadMem(2 bytes @ 0x20000000)  returns TRUE (0098ms, 1641ms total)
T1D7C 003:674 JLINK_ReadReg(R15 (PC))  returns 0x20000000 (0000ms, 1543ms total)
T1D7C 003:674 JLINK_ClrBPEx(BPHandle = 0x00000013)  returns 0x00 (0000ms, 1543ms total)
T1D7C 003:674 JLINK_ReadReg(R0)  returns 0x00000000 (0000ms, 1543ms total)
T1D7C 003:675 JLINK_WriteMem(0x20000520, 0x0200 Bytes, ...) -- Data:  77 06 00 00 77 06 00 00 77 06 00 00 77 06 00 00 ... -- CPU_WriteMem(512 bytes @ 0x20000520)  returns 0x200 (0065ms, 1608ms total)
T1D7C 003:740 JLINK_WriteReg(R0, 0x00000200)  returns 0x00 (0000ms, 1608ms total)
T1D7C 003:740 JLINK_WriteReg(R1, 0x00000200)  returns 0x00 (0000ms, 1608ms total)
T1D7C 003:740 JLINK_WriteReg(R2, 0x20000520)  returns 0x00 (0001ms, 1609ms total)
T1D7C 003:741 JLINK_WriteReg(R3, 0x00000000)  returns 0x00 (0000ms, 1609ms total)
T1D7C 003:741 JLINK_WriteReg(R4, 0x00000000)  returns 0x00 (0000ms, 1609ms total)
T1D7C 003:741 JLINK_WriteReg(R5, 0x00000000)  returns 0x00 (0000ms, 1609ms total)
T1D7C 003:741 JLINK_WriteReg(R6, 0x00000000)  returns 0x00 (0000ms, 1609ms total)
T1D7C 003:741 JLINK_WriteReg(R7, 0x00000000)  returns 0x00 (0000ms, 1609ms total)
T1D7C 003:741 JLINK_WriteReg(R8, 0x00000000)  returns 0x00 (0000ms, 1609ms total)
T1D7C 003:741 JLINK_WriteReg(R9, 0x200004F0)  returns 0x00 (0000ms, 1609ms total)
